time delay,stg_pos,V_in,V_out,ratio,DVD
101.0,64.05050000000003,886.8736000000001,-161.94225,5.47659,3.4436899999999995e-05
102.0,64.225025,886.5514499999997,-162.06299999999996,5.470515000000001,3.435652e-05
103.0,64.374375,889.0590500000001,-161.96229999999997,5.489445000000001,3.4380560000000005e-05
104.0,64.52524999999999,893.2485499999999,-161.75594999999996,5.522260000000001,3.4495485e-05
105.0,64.675175,895.0815499999999,-161.61489999999995,5.538449999999999,3.4354459999999995e-05
106.0,64.82477499999997,897.2770499999999,-162.06815,5.536490000000001,3.4302110000000006e-05
107.0,64.97565,898.2639499999999,-161.90205,5.5482499999999995,3.4305195e-05
108.0,65.12455,897.3978500000001,-162.00280000000004,5.53949,3.4186865e-05
109.0,65.274175,895.5649500000002,-162.22939999999997,5.520445,3.4420215e-05
110.0,65.42505000000001,892.4530499999998,-161.87675000000002,5.513235,3.4342600000000006e-05
111.0,65.57475,888.4952499999999,-161.58470000000005,5.4986950000000006,3.446632e-05
112.0,65.72445,883.4242,-161.98250000000002,5.453905000000001,3.4535709999999996e-05
113.0,65.8753,878.4190999999998,-162.1538,5.417335,3.4489025e-05
114.0,66.02599999999998,873.8617999999999,-162.28465000000003,5.384835,3.4474695e-05
115.0,66.17644999999999,869.82845,-161.98250000000002,5.370019999999999,3.451755500000001e-05
116.0,66.32744999999998,866.7668500000002,-161.83655,5.3559399999999995,3.4415330000000004e-05
117.0,66.475875,864.3649000000001,-161.9625,5.336900000000001,3.441616500000001e-05
118.0,66.62530000000001,862.3155,-161.82645000000002,5.328664999999999,3.4509255e-05
119.0,66.77497500000001,861.82205,-162.0129,5.319535,3.440365000000001e-05
120.0,66.92467500000001,862.2199,-161.88685,5.3260950000000005,3.449114e-05
121.0,67.074275,864.5009,-161.77605,5.34387,3.4485065000000004e-05
122.0,67.224025,867.4214999999998,-162.10340000000002,5.351095,3.4576859999999995e-05
123.0,67.37457500000001,872.1347500000002,-161.80624999999998,5.3900500000000005,3.4648044999999994e-05
124.0,67.52605,875.7904499999999,-162.02285,5.405415,3.4712155000000006e-05
125.0,67.6747,880.3727999999999,-162.26965,5.425509999999999,3.4702905e-05
126.0,67.82457500000001,883.8069499999998,-161.7158,5.465269999999999,3.4401870000000005e-05
127.0,67.97462499999999,887.1557999999999,-161.7559,5.484609999999999,3.4612335e-05
128.0,68.12427499999998,889.30585,-162.02779999999996,5.488760000000001,3.4615095000000006e-05
129.0,68.2742,891.4156499999999,-161.9069,5.50586,3.4391544999999994e-05
130.0,68.42557500000001,891.2446,-162.04295000000002,5.5001299999999995,3.445856500000001e-05
131.0,68.57589999999999,889.81945,-162.08319999999998,5.489974999999999,3.44712e-05
132.0,68.72727499999999,887.46775,-161.9624,5.4795549999999995,3.4480485e-05
133.0,68.8774,883.8775499999999,-161.90210000000002,5.4594000000000005,3.4628609999999996e-05
134.0,69.0258,879.3103000000001,-161.897,5.431320000000001,3.453211e-05
135.0,69.17637500000001,874.3050999999999,-161.72080000000003,5.40636,3.4479024999999995e-05
136.0,69.3244,868.1968999999999,-161.95235000000005,5.360895,3.4364375e-05
137.0,69.474225,861.95805,-161.89195,5.324354999999999,3.442133e-05
138.0,69.62455000000001,856.26785,-161.77110000000005,5.29323,3.446789500000001e-05
139.0,69.775025,851.7810999999999,-162.1085,5.254439999999999,3.444904e-05
140.0,69.92507499999999,848.4275,-161.78115,5.24437,3.448949999999999e-05
141.0,70.07660000000001,846.1716499999997,-162.06320000000002,5.22132,3.449332999999999e-05
142.0,70.225275,845.4716999999998,-161.97740000000002,5.219795,3.4586745e-05
143.0,70.37542499999999,845.3658499999999,-162.325,5.2078999999999995,3.4553355e-05
144.0,70.52525,846.0558000000001,-161.96734999999998,5.223665,3.4438424999999994e-05
145.0,70.674775,848.1002500000001,-161.84149999999997,5.24037,3.452673e-05
146.0,70.82577499999998,850.7841499999998,-161.74575000000002,5.260095000000001,3.4390689999999995e-05
147.0,70.97564999999999,854.4751,-161.96240000000003,5.27581,3.45225e-05
148.0,71.12655,857.87925,-161.77620000000005,5.302965,3.4630935e-05
149.0,71.2775,860.69915,-162.00775000000004,5.312749999999999,3.4501140000000004e-05
150.0,71.42632500000002,863.0960499999999,-162.04789999999997,5.32625,3.4440469999999995e-05
151.0,71.5752,863.9721999999999,-162.11839999999998,5.329365,3.460306e-05
152.0,71.72605,864.3851500000001,-162.02785,5.334895,3.450436e-05
153.0,71.87485000000001,863.7607000000002,-162.13355000000004,5.3275299999999985,3.457396e-05
154.0,72.02487499999998,862.1139500000002,-162.16875,5.316230000000001,3.4607895e-05
155.0,72.17487499999999,859.1783499999999,-162.41060000000002,5.29021,3.4363530000000006e-05
156.0,72.32557500000001,854.1780999999999,-161.88690000000003,5.27645,3.452727000000001e-05
157.0,72.47550000000001,849.34905,-162.13865000000004,5.2385,3.4491239999999995e-05
158.0,72.625975,843.3969500000001,-161.9322,5.20843,3.4608000000000005e-05
159.0,72.775875,836.8710500000001,-161.9775,5.166684999999999,3.4489389999999995e-05
160.0,72.925375,831.2765999999999,-162.52135,5.114929999999999,3.472072499999999e-05
161.0,73.0746,825.8381500000002,-162.03304999999997,5.096784999999999,3.4619715e-05
162.0,73.224725,821.60825,-161.96734999999995,5.07274,3.453187499999999e-05
163.0,73.37565,817.92235,-162.053,5.047335,3.442111e-05
164.0,73.526275,814.8306999999999,-161.8416,5.034834999999999,3.4514885e-05
165.0,73.677525,813.03295,-162.12349999999998,5.015040000000001,3.459058999999999e-05
166.0,73.82797500000001,813.2797,-161.92215000000002,5.022715,3.4501424999999996e-05
167.0,73.97607499999998,814.0249000000001,-162.1084,5.021614999999999,3.4640779999999994e-05
168.0,74.126225,815.6818000000001,-162.04295,5.033824999999999,3.463583000000001e-05
169.0,74.27542500000001,818.33045,-161.75095000000005,5.05924,3.4507440000000004e-05
170.0,74.42460000000001,820.6416499999998,-161.60985,5.078015,3.462584999999999e-05
171.0,74.57502499999998,824.5893,-161.77595000000002,5.097200000000001,3.468816e-05
172.0,74.72457500000002,827.43445,-162.25459999999998,5.099705,3.4442855000000006e-05
173.0,74.87545,829.6352,-161.89705,5.124559999999999,3.442899e-05
174.0,75.026775,830.7680999999999,-161.6149,5.140460000000002,3.4466080000000004e-05
175.0,75.17495,830.9844999999999,-161.7962,5.136069999999999,3.4457795e-05
176.0,75.32494999999999,830.2794999999999,-161.87175000000002,5.1293549999999986,3.4473450000000004e-05
177.0,75.475675,828.43655,-161.93725,5.115889999999999,3.4454224999999995e-05
178.0,75.62502499999998,824.8412000000001,-162.01785,5.0911599999999995,3.450848e-05
179.0,75.77520000000001,820.46545,-161.74094999999997,5.072760000000001,3.4675369999999995e-05
180.0,75.92605,815.6967499999998,-161.99265,5.0354399999999995,3.461025499999999e-05
181.0,76.076375,809.98655,-162.1839,4.994325000000001,3.470349999999999e-05
182.0,76.22757499999999,804.62375,-162.1991,4.9608,3.4715525e-05
183.0,76.37745,799.0040999999999,-161.89700000000002,4.935350000000001,3.4714009999999994e-05
184.0,76.52632499999999,795.2525499999999,-161.86165000000003,4.91319,3.4731345e-05
185.0,76.67665000000001,790.9925499999999,-161.98755000000003,4.883105,3.4681364999999994e-05
186.0,76.82527499999999,787.0497000000001,-162.02285,4.8576999999999995,3.4737649999999994e-05
187.0,76.97522500000001,784.9902500000001,-161.96245,4.846805,3.485802500000001e-05
188.0,77.125575,784.1644000000001,-161.8919,4.843870000000001,3.4709949999999995e-05
189.0,77.27555000000001,784.5573,-162.1034,4.839905000000001,3.4660895e-05
190.0,77.42547500000002,786.5059500000001,-161.81635,4.860550000000001,3.4543095000000004e-05
191.0,77.5763,789.4669,-161.75600000000003,4.88067,3.4494255e-05
192.0,77.724875,792.4428,-161.86679999999998,4.895739999999999,3.452129e-05
193.0,77.874725,795.90715,-161.89690000000002,4.9162300000000005,3.448441e-05
194.0,78.024875,799.1096999999999,-161.57465,4.945839999999999,3.4582365e-05
195.0,78.17479999999999,802.6396499999998,-161.79125,4.961039999999999,3.4479865e-05
196.0,78.32572499999999,804.8855500000001,-161.70055000000002,4.977679999999999,3.4481290000000004e-05
197.0,78.47590000000002,807.0106,-162.0985,4.9785650000000015,3.4649495e-05
198.0,78.62665000000001,808.03275,-161.88684999999998,4.991404999999999,3.4753505e-05
199.0,78.778175,807.40335,-161.79125000000005,4.990430000000001,3.4669045e-05
200.0,78.92695,805.3335999999999,-161.8113,4.97706,3.4633155e-05
201.0,79.075825,802.1613500000001,-161.80635,4.957575000000001,3.465684999999999e-05
202.0,79.22615,798.3243000000002,-161.82150000000001,4.93341,3.449612e-05
203.0,79.37495,793.5657500000002,-161.88684999999998,4.902035,3.4630425e-05
204.0,79.524225,789.3158000000001,-162.01280000000003,4.872025000000001,3.4586159999999995e-05
205.0,79.67490000000002,783.5652499999999,-161.78114999999997,4.843415,3.450411e-05
206.0,79.824925,777.80455,-162.08315,4.7989250000000006,3.4558985e-05
207.0,79.97607500000001,774.3048999999999,-161.94210000000004,4.781440000000001,3.451891e-05
208.0,80.125025,770.5332999999998,-161.92705000000004,4.758699999999999,3.4752020000000003e-05
209.0,80.2746,768.17155,-162.07319999999999,4.739745,3.4665124999999996e-05
210.0,80.42472500000001,766.2984,-161.86675000000005,4.7342,3.457213499999999e-05
211.0,80.574925,765.9912000000002,-161.87685,4.73199,3.464747e-05
212.0,80.72480000000002,766.4092,-161.74590000000003,4.739085,3.449444e-05
213.0,80.87545,768.4887500000001,-161.88185000000004,4.747305,3.448763499999999e-05
214.0,81.026175,771.0067000000001,-161.6552,4.769499999999999,3.4584589999999993e-05
215.0,81.176575,774.5617,-162.0379,4.78016,3.4515475000000003e-05
216.0,81.32807499999998,778.59505,-161.85674999999998,4.8104700000000005,3.4531215e-05
217.0,81.476425,781.82785,-161.65025,4.836630000000001,3.4293085e-05
218.0,81.62592500000002,785.2421,-161.47905,4.86293,3.4402914999999997e-05
219.0,81.77612500000001,788.7366,-161.8316,4.873859999999999,3.429557000000001e-05
220.0,81.92505,790.4035999999999,-162.08315000000002,4.876589999999999,3.435513500000001e-05
221.0,82.0753,791.2697,-162.0379,4.883345,3.4620770000000004e-05
222.0,82.225825,791.3148000000002,-162.04799999999997,4.883265,3.4521190000000003e-05
223.0,82.376325,789.2653,-161.63525,4.8830350000000005,3.4625845000000006e-05
224.0,82.527,785.9620000000001,-161.65025,4.862185,3.4746565e-05
225.0,82.675025,781.8228000000001,-161.86165,4.830250000000001,3.419035e-05
226.0,82.82560000000002,777.8246999999999,-161.77605,4.808125000000001,3.436848999999999e-05
227.0,82.976025,773.2675999999999,-161.90709999999999,4.77603,3.4462484999999996e-05
228.0,83.12547500000001,768.90685,-161.86685000000003,4.750279999999999,3.4523879999999995e-05
229.0,83.2755,763.7052000000001,-161.59484999999998,4.72611,3.4458630000000005e-05
230.0,83.42657499999999,758.6947,-161.80119999999997,4.689135000000001,3.417545000000001e-05
231.0,83.57725,755.3059499999999,-161.83650000000003,4.667145,3.4426870000000005e-05
232.0,83.72824999999999,752.3702000000001,-161.87185000000002,4.647995,3.437337499999999e-05
233.0,83.87805,750.81425,-161.79635000000002,4.640549999999999,3.437085e-05
234.0,84.0266,749.9480500000002,-161.9121,4.631895,3.44247e-05
235.0,84.17662500000002,751.0508500000001,-161.90710000000004,4.63886,3.4433089999999986e-05
236.0,84.32480000000001,752.7781,-161.7107,4.655150000000001,3.4348100000000004e-05
237.0,84.474675,754.7973,-162.10335,4.65635,3.4488850000000004e-05
238.0,84.624575,757.8437499999999,-161.7156,4.6863399999999995,3.443254e-05
239.0,84.775,761.3082499999999,-161.78615,4.70573,3.4454465e-05
240.0,84.9252,765.4524,-161.50920000000002,4.73945,3.4305824999999994e-05
241.0,85.07517499999999,768.90175,-161.79115,4.752490000000001,3.444536e-05
242.0,85.224725,771.1776500000001,-161.6251,4.77147,3.4465515000000005e-05
243.0,85.3749,772.43155,-161.77614999999997,4.774765,3.423205500000001e-05
244.0,85.524625,772.63795,-161.85665000000003,4.773645,3.439912e-05
245.0,85.67500000000001,771.35895,-161.79120000000003,4.7676799999999995,3.4408865e-05
246.0,85.82572499999999,769.8232500000001,-162.0127,4.751695000000001,3.4154619999999995e-05
247.0,85.97594999999998,767.2852999999998,-161.89185,4.739550000000001,3.444394e-05
248.0,86.12625,763.5691999999998,-161.80630000000002,4.7191,3.4430455e-05
249.0,86.2781,758.5739500000002,-161.79625000000001,4.688515,3.4416534999999994e-05
250.0,86.426725,752.9039,-161.86165,4.6516399999999996,3.4501789999999995e-05
251.0,86.57547500000001,747.96405,-161.80635,4.622635000000001,3.4504375e-05
252.0,86.726025,742.80265,-161.84655,4.589615000000001,3.4490025e-05
253.0,86.875025,737.9537,-161.80135,4.56093,3.4529235e-05
254.0,87.025125,734.0712,-161.68545,4.540185,3.4493905e-05
255.0,87.17632499999999,731.3168499999999,-161.86169999999998,4.518185,3.46936e-05
256.0,87.3264,729.82625,-161.88685,4.508325000000001,3.453559e-05
257.0,87.47720000000001,729.2067999999998,-161.7107,4.50938,3.4569765e-05
258.0,87.62610000000001,729.64995,-161.62005,4.514690000000001,3.446883499999999e-05
259.0,87.7757,730.9593000000001,-161.9071,4.514719999999999,3.4416785000000005e-05
260.0,87.926375,733.1597499999999,-161.79119999999998,4.531595000000001,3.452915e-05
261.0,88.0749,736.4680999999998,-162.05310000000003,4.544675,3.461310000000001e-05
262.0,88.224975,739.6504500000002,-161.60999999999999,4.576829999999999,3.435928500000001e-05
263.0,88.37592500000001,742.7070500000001,-161.58459999999997,4.596455000000001,3.442585500000001e-05
264.0,88.52622499999998,745.15925,-161.79620000000003,4.605590000000001,3.427554e-05
265.0,88.67657499999999,748.40715,-161.7459,4.627120000000001,3.4514009999999996e-05
266.0,88.8278,750.0589,-161.66525000000001,4.639640000000001,3.4164940000000005e-05
267.0,88.97640000000001,750.0086499999999,-161.71065,4.638040000000001,3.4213965e-05
268.0,89.125825,749.20285,-162.00265000000002,4.624665,3.434186500000001e-05
269.0,89.27575,747.1232500000001,-161.88690000000003,4.615155000000001,3.4249585000000004e-05
270.0,89.42537500000002,743.9710000000001,-162.00265,4.592405000000001,3.43429e-05
271.0,89.57554999999999,740.1995000000001,-161.77604999999997,4.57554,3.443802e-05
272.0,89.72627499999999,736.4127000000001,-161.99265,4.5460650000000005,3.4075645e-05
273.0,89.87659999999998,731.4528499999999,-161.88190000000003,4.518555,3.4216899999999994e-05
274.0,90.02655000000001,726.5985,-161.71570000000003,4.49313,3.4422335e-05
275.0,90.175425,720.7069500000001,-161.781,4.45489,3.4282564999999994e-05
276.0,90.32495,716.55765,-161.71060000000003,4.431240000000001,3.447807e-05
277.0,90.47510000000001,713.1335,-161.87670000000003,4.405479999999999,3.442747000000001e-05
278.0,90.62445,709.75475,-161.82135000000002,4.38611,3.4461375e-05
279.0,90.7753,708.37495,-161.65519999999998,4.38208,3.4530395000000004e-05
280.0,90.925825,707.9823000000001,-161.85665,4.37427,3.448451e-05
281.0,91.07639999999999,708.71235,-161.90705,4.37738,3.4457825e-05
282.0,91.22747499999998,710.2985000000001,-161.83655,4.38909,3.4430979999999995e-05
283.0,91.37757500000001,712.4285000000002,-161.79615,4.403390000000001,3.440780999999999e-05
284.0,91.525725,715.7670500000002,-161.46385000000004,4.433095,3.437429000000001e-05
285.0,91.676075,719.8759500000001,-161.41355,4.459860000000001,3.4341264999999993e-05
286.0,91.8254,722.9929500000001,-161.76100000000002,4.46957,3.449986e-05
287.0,91.975325,725.8079499999998,-161.56959999999998,4.492275,3.457187e-05
288.0,92.125925,727.9681499999999,-161.6754,4.5027099999999995,3.459660000000001e-05
289.0,92.276075,730.01255,-161.58474999999999,4.517869999999999,3.4435105000000005e-05
290.0,92.42729999999999,730.55635,-161.9825,4.510120000000001,3.4426460000000004e-05
291.0,92.578,729.8916,-161.7711,4.511925000000001,3.444278e-05
292.0,92.7257,728.3003999999999,-161.70559999999998,4.503925,3.4482275e-05
293.0,92.87567500000002,725.03235,-161.60490000000001,4.48652,3.450098499999999e-05
294.0,93.025125,720.95355,-161.62499999999997,4.460710000000001,3.4570754999999995e-05
295.0,93.17465000000001,716.1397,-161.78109999999998,4.426675000000001,3.452381e-05
296.0,93.32527499999999,711.2201000000001,-161.60999999999999,4.400895,3.448965500000001e-05
297.0,93.47554999999998,706.5421,-161.5596,4.373315,3.455150000000001e-05
298.0,93.6257,701.91445,-161.57475000000002,4.344235,3.4482235e-05
299.0,93.7778,697.6543,-161.92210000000003,4.30865,3.444963e-05
300.0,93.92647500000001,694.4869500000001,-161.82655,4.291605,3.4467935000000005e-05
301.0,94.075725,692.1856,-161.80115,4.278059999999999,3.4416549999999995e-05
