,time delay,stg_pos,V_in,V_out,ratio,DVD,poly fit,poly res,Residual FFT,Associated F,Sine Res Fit
0,101.0,64.05050000000003,886.8736000000001,-161.94225,5.47659,3.4436899999999995e-05,886.5246801978082,0.34891980219197194,1.1901476721364494e-18,0.0,-1.2226103042762482
1,102.0,64.225025,886.5514499999997,-162.06299999999996,5.470515000000002,3.4356520000000004e-05,886.8241531560001,-0.2727031560003752,23.22574340165452,0.004975124378109453,3.1548935617008818
2,103.0,64.374375,889.0590500000002,-161.96229999999997,5.489445000000001,3.4380560000000005e-05,887.048273910972,2.0107760890282407,20677.48357338602,0.009950248756218905,7.272184608486517
3,104.0,64.52524999999999,893.2485499999998,-161.75594999999996,5.522260000000001,3.4495485e-05,887.1994547763728,6.049095223626978,50454.75204364788,0.014925373134328358,10.823183006667051
4,105.0,64.675175,895.0815499999999,-161.61489999999995,5.538449999999999,3.4354459999999995e-05,887.2800648708288,7.801485129171056,37568.02298603279,0.01990049751243781,13.543907179129635
5,106.0,64.82477499999997,897.2770499999998,-162.06815,5.5364900000000015,3.430211000000001e-05,887.2924304661559,9.984619533843897,26376.93412367288,0.02487562189054726,15.2320982179841
6,107.0,64.97565,898.2639499999998,-161.90205,5.54825,3.4305195e-05,887.2388353355656,11.025114664434227,44923.677732159296,0.029850746268656716,15.762255832063625
7,108.0,65.12455,897.3978500000002,-162.00280000000004,5.53949,3.4186865e-05,887.1215211018776,10.276328898122529,68445.2796407538,0.03482587064676617,15.094968051158704
8,109.0,65.274175,895.5649500000003,-162.22939999999997,5.520445,3.4420215e-05,886.9426875857276,8.622262414272654,256293.12561084604,0.03980099502487562,13.279841115836081
9,110.0,65.42505000000001,892.4530499999997,-161.87675000000004,5.513235,3.434260000000001e-05,886.7044931537765,5.7485568462232095,2114588.182955359,0.04477611940298507,10.451811744538285
10,111.0,65.57475,888.4952499999998,-161.58470000000003,5.4986950000000006,3.446632e-05,886.4090550669199,2.0861949330799234,64638.90341694772,0.04975124378109452,6.821115924400549
11,112.0,65.72445,883.4242,-161.98250000000004,5.453905000000002,3.453571e-05,886.0584498284994,-2.634249828499378,16555.937577009463,0.05472636815920398,2.6576599468782764
12,113.0,65.8753,878.4190999999997,-162.1538,5.417335,3.4489025e-05,885.6547135325092,-7.235613532509433,6556.484455149989,0.05970149253731343,-1.7290444530332694
13,114.0,66.02599999999998,873.8617999999999,-162.28465000000003,5.384835,3.4474695000000003e-05,885.1998422118082,-11.338042211808329,3545.5194275375093,0.06467661691542288,-6.012889230224898
14,115.0,66.17644999999999,869.82845,-161.98250000000004,5.3700199999999985,3.4517555000000013e-05,884.6957921863269,-14.867342186326937,2153.966924885061,0.06965174129353234,-9.875412934258017
15,116.0,66.32744999999998,866.7668500000003,-161.83655,5.35594,3.4415330000000004e-05,884.1444804112792,-17.377630411278915,1418.6658224644955,0.07462686567164178,-13.029475165534341
16,117.0,66.475875,864.3649000000001,-161.9625,5.336900000000001,3.4416165000000015e-05,883.5477848253703,-19.182884825370138,763.8433239417673,0.07960199004975124,-15.240602621404395
17,118.0,66.62530000000001,862.3155,-161.82645000000005,5.328664999999999,3.4509254999999995e-05,882.907544699007,-20.59204469900692,491.07114390510924,0.0845771144278607,-16.344419865005918
18,119.0,66.77497500000001,861.82205,-162.0129,5.319535,3.4403650000000014e-05,882.2255609825057,-20.403510982505736,189.43774726799506,0.08955223880597014,-16.25886901172832
19,120.0,66.92467500000001,862.2199,-161.88685,5.3260950000000005,3.449114e-05,881.5035966543043,-19.283696654304208,493.7638855375317,0.0945273631840796,-14.990309920585661
20,121.0,67.074275,864.5009,-161.77605,5.34387,3.4485065000000004e-05,880.7433770691686,-16.242477069168558,269.4932175095263,0.09950248756218905,-12.633047401659596
21,122.0,67.224025,867.4214999999997,-162.10340000000005,5.351095,3.4576859999999995e-05,879.9465903064057,-12.525090306406014,212.90462033185588,0.1044776119402985,-9.362320587058422
22,123.0,67.37457500000001,872.1347500000003,-161.80624999999995,5.3900500000000005,3.4648044999999994e-05,879.1148875180692,-6.9801375180688865,171.0618567168926,0.10945273631840796,-5.421275636258332
23,124.0,67.52605,875.7904499999999,-162.02285,5.4054150000000005,3.471215500000001e-05,878.2498832771702,-2.4594332771703193,30.059046791167155,0.1144278606965174,-1.1028902262185427
24,125.0,67.6747,880.3727999999999,-162.26965,5.425509999999999,3.4702905e-05,877.3531559258894,3.019644074110488,41.96529374911131,0.11940298507462686,3.2718064385117325
25,126.0,67.82457500000001,883.8069499999997,-161.7158,5.4652699999999985,3.4401870000000005e-05,876.4262479237822,7.380702076217517,142.1260092146688,0.12437810945273632,7.377598969061144
26,127.0,67.97462499999999,887.1557999999999,-161.7559,5.484609999999999,3.4612334999999996e-05,875.4706661959905,11.68513380400941,298.1977150427501,0.12935323383084577,10.909262336866147
27,128.0,68.12427499999998,889.30585,-162.02779999999996,5.488760000000001,3.461509500000001e-05,874.4878824814531,14.81796751854688,414.32521037865234,0.13432835820895522,13.604252332912193
28,129.0,68.2742,891.4156499999998,-161.9069,5.50586,3.4391544999999994e-05,873.4793336811123,17.93631631888752,1.213461813825768,0.13930348258706468,15.262223130564847
29,130.0,68.42557500000001,891.2446,-162.04295000000005,5.50013,3.4458565000000014e-05,872.4464222061252,18.798177793874743,254.69718511883354,0.14427860696517414,15.759921014419549
30,131.0,68.57589999999999,889.81945,-162.08319999999995,5.4899749999999985,3.4471199999999996e-05,871.3905163260741,18.428933673925826,241.6336283251949,0.14925373134328357,15.060347073867666
31,132.0,68.72727499999999,887.46775,-161.9624,5.479555,3.4480485e-05,870.3129505171727,17.154799482827343,60.296465953443764,0.15422885572139303,13.2155077058224
32,133.0,68.8774,883.8775499999998,-161.90210000000005,5.4594000000000005,3.462861e-05,869.2150258104792,14.662524189520582,403.7469189932643,0.15920398009950248,10.362548453955638
33,134.0,69.0258,879.3103000000001,-161.89700000000002,5.431320000000001,3.4532109999999995e-05,868.0980101401043,11.212289859895805,97.64449150483378,0.16417910447761194,6.713558595224636
34,135.0,69.17637500000001,874.3050999999998,-161.72080000000003,5.40636,3.4479024999999995e-05,866.9631386914183,7.341961308581517,163.95125300519567,0.1691542288557214,2.5398044017488526
35,136.0,69.3244,868.1968999999998,-161.95235000000002,5.360894999999999,3.4364375e-05,865.8116142492639,2.385285750735875,132.69418350617505,0.17412935323383083,-1.8484368210694775
36,137.0,69.474225,861.95805,-161.89195,5.324354999999999,3.442133e-05,864.6446075461662,-2.6865575461662274,135.79297084203512,0.1791044776119403,-6.124942780552118
37,138.0,69.62455000000001,856.26785,-161.77110000000005,5.29323,3.446789500000001e-05,863.4632576105363,-7.195407610536336,140.0313323708201,0.18407960199004975,-9.971797594704734
38,139.0,69.775025,851.7810999999998,-162.1085,5.254439999999999,3.4449040000000004e-05,862.2686721148879,-10.487572114888053,48.959651562443646,0.1890547263681592,-13.103025690775258
39,140.0,69.92507499999999,848.4275,-161.78115,5.24437,3.448949999999999e-05,861.0619277240434,-12.634427724043348,150.52327665296514,0.19402985074626866,-15.285851258015427
40,141.0,70.07660000000001,846.1716499999997,-162.06320000000005,5.2213199999999995,3.4493329999999986e-05,859.8440704433416,-13.672420443341935,162.90367291135178,0.1990049751243781,-16.358002824802618
41,142.0,70.225275,845.4716999999997,-161.97740000000005,5.2197949999999995,3.4586745e-05,858.616115966853,-13.14441596685333,71.15817450911301,0.20398009950248755,-16.23977653611693
42,143.0,70.37542499999998,845.3658499999998,-162.325,5.2079,3.4553355000000004e-05,857.3790500255794,-12.013200025579636,20.906802593711383,0.208955223880597,-14.93996134611825
43,144.0,70.52525,846.0558000000002,-161.96734999999995,5.2236650000000004,3.4438424999999994e-05,856.1338287356745,-10.078028735674252,220.70623492512235,0.21393034825870647,-12.555185646412417
44,145.0,70.674775,848.1002500000002,-161.84149999999997,5.2403699999999995,3.452673e-05,854.8813789466464,-6.781128946646163,54.96359433613586,0.21890547263681592,-9.262733901726675
45,146.0,70.82577499999998,850.7841499999997,-161.74575000000004,5.2600950000000015,3.4390689999999995e-05,853.6225985895684,-2.8384485895686566,99.78704700590288,0.22388059701492538,-5.307367305018879
46,147.0,70.97564999999999,854.4751,-161.96240000000003,5.27581,3.45225e-05,852.3583570252882,2.1167429747117694,112.68988488639644,0.2288557213930348,-0.9831282058415967
47,148.0,71.12655,857.87925,-161.77620000000005,5.302965,3.4630934999999996e-05,851.0894953926405,6.789754607359441,47.07723205729641,0.23383084577114427,3.38851902741831
48,149.0,71.2775,860.69915,-162.00775000000004,5.3127499999999985,3.4501140000000004e-05,849.8168269566503,10.882323043349743,144.94697855902814,0.23880597014925373,7.482585700930879
49,150.0,71.42632500000002,863.0960499999999,-162.04789999999997,5.32625,3.4440469999999995e-05,848.5411374567485,14.554912543251362,186.99788797185604,0.24378109452736318,10.994718487521206
50,151.0,71.5752,863.9721999999998,-162.11839999999995,5.329365,3.460306e-05,847.263185454979,16.709014545020864,17.076016366820532,0.24875621890547264,13.663825083540571
51,152.0,71.72605,864.3851500000002,-162.02785,5.3348949999999995,3.450436e-05,845.9837026842046,18.40144731579562,83.07193083687706,0.2537313432835821,15.291483836909235
52,153.0,71.87485000000002,863.7607000000003,-162.13355000000004,5.327529999999999,3.4573959999999995e-05,844.7033943963246,19.057305603675673,14.452081180874943,0.25870646766169153,15.756694432635234
53,154.0,72.02487499999998,862.1139500000003,-162.16875,5.316230000000001,3.4607895e-05,843.4229397104756,18.691010289524684,60.924858382194074,0.263681592039801,15.024873068368143
54,155.0,72.17487499999999,859.1783499999998,-162.41060000000004,5.29021,3.436353000000001e-05,842.1429919612468,17.035358038752975,70.23708866231043,0.26865671641791045,13.150423417734817
55,156.0,72.32557500000001,854.1780999999999,-161.88690000000003,5.27645,3.4527270000000015e-05,840.8641790468863,13.313920953113552,74.11684718671624,0.2736318407960199,10.27269225578522
56,157.0,72.47550000000003,849.34905,-162.13865000000004,5.2385,3.4491239999999995e-05,839.5871037775115,9.761946222488518,112.33191081351747,0.27860696517412936,6.605610405756379
57,158.0,72.625975,843.3969500000002,-161.9322,5.20843,3.4608000000000005e-05,838.3123442233185,5.084605776681656,29.515950223026852,0.2835820895522388,2.4217891002158503
58,159.0,72.775875,836.8710500000002,-161.9775,5.166684999999998,3.4489389999999995e-05,837.0404540627945,-0.16940406279434228,105.79219849345327,0.2885572139303483,-1.9677459653134306
59,160.0,72.925375,831.2765999999998,-162.52135,5.114929999999998,3.472072499999999e-05,835.7719629309198,-4.49536293092001,50.01878763335784,0.2935323383084577,-6.236676313756312
60,161.0,73.0746,825.8381500000003,-162.03304999999997,5.096784999999999,3.4619715000000004e-05,834.5073767673856,-8.66922676738534,109.93192073786057,0.29850746268656714,-10.067649234803413
61,162.0,73.224725,821.60825,-161.96734999999995,5.0727400000000005,3.4531874999999985e-05,833.2471781647993,-11.638928164799268,56.89229713748454,0.3034825870646766,-13.175869817228417
62,163.0,73.37565,817.92235,-162.053,5.0473349999999995,3.4421109999999995e-05,831.9918267168912,-14.069476716891131,57.63953367584737,0.30845771144278605,-15.330272631155713
63,164.0,73.526275,814.8306999999999,-161.8416,5.034834999999998,3.4514884999999996e-05,830.7417593667312,-15.911059366731365,117.82388479405749,0.31343283582089554,-16.370699155294982
64,165.0,73.677525,813.03295,-162.12349999999995,5.015040000000001,3.4590589999999986e-05,829.4973907549318,-16.46444075493173,82.4640878536607,0.31840796019900497,-16.219803977479035
65,166.0,73.82797500000002,813.2797,-161.92215000000004,5.022715,3.4501425e-05,828.2591135678598,-14.979413567859751,155.42440393475923,0.3233830845771144,-14.888804660362634
66,167.0,73.97607499999998,814.0249000000001,-162.1084,5.021614999999999,3.4640779999999994e-05,827.0272988858468,-13.002398885846674,81.66198325520618,0.3283582089552239,-12.476647826689856
67,168.0,74.126225,815.6818000000002,-162.04295,5.033824999999998,3.4635830000000014e-05,825.802296531397,-10.120496531396839,22.914279735965103,0.3333333333333333,-9.162653457433091
68,169.0,74.27542500000001,818.33045,-161.75095000000005,5.05924,3.4507440000000004e-05,824.5844354173994,-6.253985417399349,100.99302514511683,0.3383084577114428,-5.193184226421883
69,170.0,74.42460000000001,820.6416499999997,-161.60985,5.078015,3.4625849999999986e-05,823.3740238953317,-2.732373895331989,32.27950717831927,0.34328358208955223,-0.8633308744575194
70,171.0,74.57502499999998,824.5893,-161.77595000000005,5.097200000000001,3.4688159999999995e-05,822.171350103475,2.4179498965249877,95.62696658007442,0.34825870646766166,3.505024865957793
71,172.0,74.72457500000002,827.43445,-162.25459999999995,5.099705,3.444285500000001e-05,820.9766823151208,6.4577676848791725,78.7859987941993,0.35323383084577115,7.587138990902323
72,173.0,74.87545,829.6352,-161.89705,5.124559999999999,3.4428990000000005e-05,819.7902692867827,9.844930713217309,166.0693902503445,0.3582089552238806,11.079546726860643
73,174.0,75.026775,830.7680999999999,-161.6149,5.140460000000002,3.4466080000000004e-05,818.6123406064023,12.155759393597577,31.338550968243315,0.36318407960199006,13.722622132426594
74,175.0,75.17495,830.9844999999998,-161.7962,5.136069999999999,3.4457795e-05,817.443107041562,13.541392958437768,69.96813267094367,0.3681592039800995,15.319878716829866
75,176.0,75.32494999999999,830.2794999999999,-161.87175000000005,5.129354999999999,3.4473450000000004e-05,816.2827608876904,13.996739112309456,88.6951551087921,0.3731343283582089,15.75257626536895
76,177.0,75.475675,828.43655,-161.93725,5.1158899999999985,3.4454224999999995e-05,815.1314763162798,13.305073683720252,32.28101677671081,0.3781094527363184,14.988547998882602
77,178.0,75.62502499999998,824.8412000000002,-162.01785,5.09116,3.450848e-05,813.9894097230828,10.851790276917427,80.092633996389,0.38308457711442784,13.084591855339255
78,179.0,75.77520000000001,820.46545,-161.74094999999997,5.0727600000000015,3.4675369999999995e-05,812.8567000763361,7.608749923663936,133.21856630167213,0.3880597014925373,10.182248125431183
79,180.0,75.92605,815.6967499999997,-161.99265,5.03544,3.4610254999999986e-05,811.7334692649562,3.963280735043554,121.88946071104088,0.39303482587064675,6.497277333166871
80,181.0,76.076375,809.98655,-162.1839,4.994325000000001,3.470349999999999e-05,810.6198224467631,-0.6332724467631579,76.15856681595778,0.3980099502487562,2.303620576873807
81,182.0,76.22757499999999,804.62375,-162.1991,4.9608,3.4715525e-05,809.5158483966769,-4.892098396676943,29.998090798825093,0.40298507462686567,-2.0869652795295632
82,183.0,76.37745,799.0040999999999,-161.89700000000005,4.9353500000000015,3.4714009999999994e-05,808.4216198549324,-9.417519854932493,130.95078191400788,0.4079601990049751,-6.348083643069104
83,184.0,76.52632499999999,795.2525499999998,-161.86165000000003,4.91319,3.4731345e-05,807.337193875292,-12.084643875292159,49.27778056304092,0.4129353233830846,-10.162962547176752
84,185.0,76.67665000000002,790.9925499999998,-161.98755000000003,4.8831050000000005,3.4681364999999994e-05,806.2626121732502,-15.27006217325038,57.70743956434367,0.417910447761194,-13.248003511459542
85,186.0,76.82527499999998,787.0497000000001,-162.02285,4.8577,3.4737649999999994e-05,805.1979014742442,-18.148201474244047,29.378698994417423,0.4228855721393035,-15.37386428118029
86,187.0,76.97522500000002,784.9902500000002,-161.96245,4.846805000000001,3.485802500000001e-05,804.1430738618637,-19.152823861863567,62.35313900031458,0.42786069651741293,-16.382508153477612
87,188.0,77.125575,784.1644000000001,-161.8919,4.843870000000001,3.4709949999999995e-05,803.0981271260626,-18.933727126062536,70.28282723550393,0.43283582089552236,-16.198952441710286
88,189.0,77.27555000000002,784.5573,-162.1034,4.839905000000001,3.4660895e-05,802.0630451113655,-17.5057451113654,23.988178577597534,0.43781094527363185,-14.836842695903124
89,190.0,77.42547500000002,786.5059500000001,-161.81635,4.860550000000001,3.4543095000000004e-05,801.0377980650746,-14.531848065074541,40.12691673066718,0.4427860696517413,-12.397438291189383
90,191.0,77.5763,789.4669,-161.75600000000003,4.880669999999999,3.4494254999999996e-05,800.0223429854873,-10.555442985487275,54.28038646068856,0.44776119402985076,-9.062084795706273
91,192.0,77.724875,792.4428,-161.86679999999996,4.895739999999999,3.4521290000000004e-05,799.0166239700987,-6.573823970098715,34.02879869732364,0.4527363184079602,-5.078732722869295
92,193.0,77.874725,795.90715,-161.89690000000004,4.9162300000000005,3.448441e-05,798.020572563812,-2.113422563812037,92.42651801487389,0.4577114427860696,-0.7435048653336157
93,194.0,78.024875,799.1096999999999,-161.57465,4.945839999999999,3.4582365e-05,797.0341081071517,2.075591892848138,81.65145651159798,0.4626865671641791,3.621317503115283
94,195.0,78.17479999999998,802.6396499999997,-161.79125,4.961039999999999,3.4479865e-05,796.0571380844683,6.582511915531427,53.6608759831692,0.46766169154228854,7.691253049782077
95,196.0,78.32572499999998,804.8855500000002,-161.70055000000005,4.9776799999999986,3.4481290000000004e-05,795.0895584721515,9.795991527848741,42.28273496116006,0.472636815920398,11.16374235788179
96,197.0,78.47590000000002,807.0106,-162.0985,4.9785650000000015,3.4649495e-05,794.1312540868371,12.879345913162865,9.04685493735351,0.47761194029850745,13.780640223933956
97,198.0,78.62665000000001,808.03275,-161.88684999999995,4.9914049999999985,3.4753505e-05,793.1820989336177,14.850651066382284,26.39995219821722,0.4825870646766169,15.347406198081128
98,199.0,78.778175,807.40335,-161.79125000000005,4.990430000000001,3.4669045e-05,792.2419565542527,15.161393445747308,37.079316549511944,0.48756218905472637,15.74756674064668
99,200.0,78.92695,805.3335999999998,-161.8113,4.97706,3.4633155e-05,791.3106803753743,14.022919624625501,57.3252981770246,0.4925373134328358,14.951373876757149
100,201.0,79.075825,802.1613500000002,-161.80635,4.957575000000001,3.4656849999999987e-05,790.3881140567023,11.773235943297891,78.54759862221125,0.4975124378109453,13.01801666377827
101,202.0,79.22615,798.3243000000003,-161.8215,4.93341,3.449612e-05,789.4740918392494,8.85020816075098,78.54759862221125,-0.4975124378109453,10.091221070853308
102,203.0,79.37495,793.5657500000003,-161.88684999999995,4.902035,3.4630425e-05,788.5684388935324,4.997311106467919,57.3252981770246,-0.4925373134328358,6.38856537594013
103,204.0,79.524225,789.3158000000002,-162.01280000000003,4.872025000000002,3.4586159999999995e-05,787.6709716677816,1.6448283322185944,37.079316549511944,-0.48756218905472637,2.185305374803069
104,205.0,79.67490000000002,783.5652499999999,-161.78114999999997,4.843415,3.4504109999999994e-05,786.7814982361491,-3.2162482361492266,26.39995219821722,-0.4825870646766169,-2.2060881624544444
105,206.0,79.824925,777.80455,-162.08315,4.7989250000000006,3.4558985e-05,785.8998186469183,-8.095268646918385,9.04685493735351,-0.47761194029850745,-6.459158599782564
106,207.0,79.97607500000002,774.3048999999999,-161.94210000000004,4.781440000000001,3.451890999999999e-05,785.0257252707169,-10.720825270717,42.28273496116006,-0.472636815920398,-10.25773225425505
107,208.0,80.125025,770.5332999999997,-161.92705000000004,4.758699999999998,3.4752020000000003e-05,784.1590031487191,-13.625703148719367,53.6608759831692,-0.46766169154228854,-13.31942277937263
108,209.0,80.2746,768.17155,-162.0732,4.739745,3.4665125e-05,783.299430340864,-15.127880340863953,81.65145651159798,-0.4626865671641791,-15.41662379438725
